T4860 000:005.538   SEGGER J-Link V9.70 Log File
T4860 000:005.718   DLL Compiled: Aug 19 2026 12:06:04
T4860 000:005.725   Logging started @ 2026-08-20 19:23
T4860 000:005.733   Process: C:\Users\George\AppData\Local\Keil_v5\UV4\UV4.exe
T4860 000:005.745 - 5.740ms 
T4860 000:005.758 JLINK_SetWarnOutHandler(...)
T4860 000:005.764 - 0.008ms 
T4860 000:005.774 JLINK_OpenEx(...)
T4860 000:010.667   Firmware: J-Link Lite V9 compiled Feb  2 2021 16:32:48
T4860 000:011.718   Firmware: J-Link Lite V9 compiled Feb  2 2021 16:32:48
T4860 000:029.096   Hardware: V9.00
T4860 000:029.122   S/N: 229004042
T4860 000:029.131   OEM: SEGGER
T4860 000:029.140   Feature(s): GDB
T4860 000:030.697   Bootloader: (FW returned invalid version)
T4860 000:031.817   TELNET listener socket opened on port 19021
T4860 000:032.061   WEBSRV WEBSRV_Init(): Starting webserver thread(s)
T4860 000:032.340   WEBSRV Webserver running on local port 19080
T4860 000:032.601   Looking for J-Link GUI Server exe at: C:\Users\George\AppData\Local\Keil_v5\ARM\Segger\JLinkGUIServer.exe
T4860 000:032.832   Looking for J-Link GUI Server exe at: C:\Program Files\SEGGER\JLink_V970\JLinkGUIServer.exe
T4860 000:032.914   Forking J-Link GUI Server: C:\Program Files\SEGGER\JLink_V970\JLinkGUIServer.exe
T4860 000:061.792   J-Link GUI Server info: "J-Link GUI server V9.70 "
T4860 000:067.501 - 61.718ms returns "O.K."
T4860 000:067.586 JLINK_GetEmuCaps()
T4860 000:067.627 - 0.038ms returns 0xB9FE7BB7
T4860 000:067.636 JLINK_TIF_GetAvailable(...)
T4860 000:067.897 - 0.260ms 
T4860 000:067.931 JLINK_SetErrorOutHandler(...)
T4860 000:068.000 - 0.068ms 
T4860 000:068.029 JLINK_ExecCommand("ProjectFile = "C:\Users\George\gitRepos\VoltWatch\firmware\aducm410\JLinkSettings.ini"", ...). 
T4860 000:085.814   Ref file found at: C:\Users\George\AppData\Local\Keil_v5\ARM\Segger\JLinkDevices.ref
T4860 000:085.939   REF file references invalid XML file: C:\Program Files\SEGGER\JLink_V970\JLinkDevices.xml
T4860 000:086.107 - 18.079ms returns 0x00
T4860 000:087.599 JLINK_ExecCommand("Device = ADuCM410", ...). 
T4860 000:092.376   Device "ADUCM410" selected.
T4860 000:092.837 - 5.236ms returns 0x00
T4860 000:092.897   ERROR: Unknown command
T4860 000:092.913 JLINK_GetHardwareVersion()
T4860 000:092.923 - 0.007ms returns 90000
T4860 000:092.931 JLINK_GetDLLVersion()
T4860 000:092.939 - 0.007ms returns 97000
T4860 000:092.948 JLINK_GetOEMString(...)
T4860 000:092.958 JLINK_GetFirmwareString(...)
T4860 000:092.965 - 0.007ms 
T4860 000:097.031 JLINK_GetDLLVersion()
T4860 000:097.068 - 0.037ms returns 97000
T4860 000:097.077 JLINK_GetCompileDateTime()
T4860 000:097.084 - 0.007ms 
T4860 000:098.286 JLINK_GetFirmwareString(...)
T4860 000:098.310 - 0.023ms 
T4860 000:099.437 JLINK_GetHardwareVersion()
T4860 000:099.461 - 0.024ms returns 90000
T4860 000:100.525 JLINK_GetSN()
T4860 000:100.541 - 0.015ms returns 229004042
T4860 000:101.551 JLINK_GetOEMString(...)
T4860 000:108.268 JLINK_TIF_Select(JLINKARM_TIF_SWD)
T4860 000:109.655 - 1.386ms returns 0x00
T4860 000:109.698 JLINK_HasError()
T4860 000:109.720 JLINK_SetSpeed(5000)
T4860 000:109.923 - 0.203ms 
T4860 000:109.943 JLINK_GetId()
T4860 000:113.946   Found SW-DP with ID 0x0BE12477
T4860 000:121.941   DPIDR: 0x0BE12477
T4860 000:125.636   CoreSight SoC-400 or earlier
T4860 000:128.368   Scanning AP map to find all available APs
T4860 000:131.978   AP[1]: Stopped AP scan as end of AP map has been reached
T4860 000:134.739   AP[0]: AHB-AP (IDR: 0x14770015, ADDR: 0x00000000)
T4860 000:137.205   Iterating through AP map to find AHB-AP to use
T4860 000:145.752   AP[0]: Core found
T4860 000:148.531   AP[0]: AHB-AP ROM base: 0xE00FE000
T4860 000:151.994   CPUID register: 0x410FD214. Implementer code: 0x41 (ARM)
T4860 000:155.735   Feature set: Mainline
T4860 000:160.338   Cache: No cache
T4860 000:163.182   Found Cortex-M33 r0p4, Little endian.
T4860 000:163.701   -- Max. mem block: 0x000012B0
T4860 000:168.168   
  ***** Warning: 
T4860 000:168.211   Cortex-M (ARMv8-M and later): The connected J-Link (S/N 229004042) uses an old firmware module that does not handle I/D-cache correctly. Proper debugging functionality cannot be guaranteed if cache is enabled
T4860 000:168.306   CPU_ReadMem(4 bytes @ 0xE000EDF0)
T4860 000:168.700   CPU_WriteMem(4 bytes @ 0xE000EDF0)
T4860 000:169.220   CPU_ReadMem(4 bytes @ 0xE0002000)
T4860 000:173.370   FPUnit: 8 code (BP) slots and 0 literal slots
T4860 000:173.474   CPU_ReadMem(4 bytes @ 0xE000EDFC)
T4860 000:174.041   CPU_WriteMem(4 bytes @ 0xE000EDFC)
T4860 000:174.615   CPU_ReadMem(4 bytes @ 0xE0001000)
T4860 000:175.106   CPU_ReadMem(4 bytes @ 0xE0001000)
T4860 000:175.663   CPU_ReadMem(4 bytes @ 0xE0001028)
T4860 000:176.246   CPU_ReadMem(4 bytes @ 0xE0001038)
T4860 000:176.745   CPU_ReadMem(4 bytes @ 0xE0001048)
T4860 000:177.184   CPU_ReadMem(4 bytes @ 0xE0001058)
T4860 000:177.705   CPU_WriteMem(4 bytes @ 0xE0001000)
T4860 000:178.113   CPU_ReadMem(4 bytes @ 0xE000ED88)
T4860 000:178.523   CPU_WriteMem(4 bytes @ 0xE000ED88)
T4860 000:178.931   CPU_ReadMem(4 bytes @ 0xE000ED88)
T4860 000:179.271   CPU_WriteMem(4 bytes @ 0xE000ED88)
T4860 000:179.895   CPU_ReadMem(4 bytes @ 0xE000EFB8)
T4860 000:183.539   Security extension: not implemented
T4860 000:187.463   CoreSight components:
T4860 000:191.499   ROMTbl[0] @ E00FE000
T4860 000:191.554   CPU_ReadMem(64 bytes @ 0xE00FE000)
T4860 000:192.643   CPU_ReadMem(32 bytes @ 0xE00FFFE0)
T4860 000:198.550   [0][0]: E00FF000 CID B105100D PID 000BB4C9 ROM Table
T4860 000:202.343   ROMTbl[1] @ E00FF000
T4860 000:202.403   CPU_ReadMem(64 bytes @ 0xE00FF000)
T4860 000:203.394   CPU_ReadMem(32 bytes @ 0xE000EFE0)
T4860 000:204.287   CPU_ReadMem(4 bytes @ 0xE000EFBC)
T4860 000:204.809   CPU_ReadMem(4 bytes @ 0xE000EFCC)
T4860 000:209.053   [1][0]: E000E000 CID B105900D PID 000BBD21 DEVARCH 47702A04 DEVTYPE 00 Cortex-M33
T4860 000:209.104   CPU_ReadMem(32 bytes @ 0xE0001FE0)
T4860 000:209.897   CPU_ReadMem(4 bytes @ 0xE0001FBC)
T4860 000:210.356   CPU_ReadMem(4 bytes @ 0xE0001FCC)
T4860 000:213.839   [1][1]: E0001000 CID B105900D PID 000BBD21 DEVARCH 47701A02 DEVTYPE 00 DWT
T4860 000:213.878   CPU_ReadMem(32 bytes @ 0xE0002FE0)
T4860 000:214.870   CPU_ReadMem(4 bytes @ 0xE0002FBC)
T4860 000:215.328   CPU_ReadMem(4 bytes @ 0xE0002FCC)
T4860 000:218.952   [1][2]: E0002000 CID B105900D PID 000BBD21 DEVARCH 47701A03 DEVTYPE 00 FPB
T4860 000:219.002   CPU_ReadMem(32 bytes @ 0xE0000FE0)
T4860 000:219.671   CPU_ReadMem(4 bytes @ 0xE0000FBC)
T4860 000:220.122   CPU_ReadMem(4 bytes @ 0xE0000FCC)
T4860 000:224.118   [1][3]: E0000000 CID B105900D PID 000BBD21 DEVARCH 47701A01 DEVTYPE 43 ITM
T4860 000:224.169   CPU_ReadMem(32 bytes @ 0xE0040FE0)
T4860 000:225.050   CPU_ReadMem(4 bytes @ 0xE0040FBC)
T4860 000:225.518   CPU_ReadMem(4 bytes @ 0xE0040FCC)
T4860 000:229.073   [0][1]: E0040000 CID B105900D PID 000BBD21 DEVARCH 00000000 DEVTYPE 11 TPIU
T4860 000:229.591 - 119.646ms returns 0x0BE12477
T4860 000:229.638 JLINK_GetDLLVersion()
T4860 000:229.645 - 0.007ms returns 97000
T4860 000:229.657 JLINK_CORE_GetFound()
T4860 000:229.664 - 0.006ms returns 0xE0200FF
T4860 000:229.672 JLINK_GetDebugInfo(0x100 = JLINKARM_ROM_TABLE_ADDR_INDEX)
T4860 000:229.680   Value=0xE00FE000
T4860 000:229.689 - 0.017ms returns 0
T4860 000:232.838 JLINK_GetDebugInfo(0x100 = JLINKARM_ROM_TABLE_ADDR_INDEX)
T4860 000:232.875   Value=0xE00FE000
T4860 000:232.885 - 0.048ms returns 0
T4860 000:232.893 JLINK_GetDebugInfo(0x101 = JLINKARM_DEBUG_INFO_ETM_ADDR_INDEX)
T4860 000:232.900   Value=0x00000000
T4860 000:232.909 - 0.015ms returns 0
T4860 000:232.925 JLINK_ReadMemEx(0xE0041FF0, 0x10 Bytes, Flags = 0x02000004)
T4860 000:232.950   CPU_ReadMem(16 bytes @ 0xE0041FF0)
T4860 000:233.633   Data:  00 00 00 00 00 00 00 00 00 00 00 00 00 00 00 00
T4860 000:233.660 - 0.734ms returns 16 (0x10)
T4860 000:233.671 JLINK_GetDebugInfo(0x102 = JLINKARM_DEBUG_INFO_MTB_ADDR_INDEX)
T4860 000:233.678   Value=0x00000000
T4860 000:233.687 - 0.016ms returns 0
T4860 000:233.695 JLINK_GetDebugInfo(0x103 = JLINKARM_DEBUG_INFO_TPIU_ADDR_INDEX)
T4860 000:233.777   Value=0xE0040000
T4860 000:233.791 - 0.096ms returns 0
T4860 000:233.800 JLINK_GetDebugInfo(0x104 = JLINKARM_DEBUG_INFO_ITM_ADDR_INDEX)
T4860 000:233.806   Value=0xE0000000
T4860 000:233.815 - 0.015ms returns 0
T4860 000:233.822 JLINK_GetDebugInfo(0x105 = JLINKARM_DEBUG_INFO_DWT_ADDR_INDEX)
T4860 000:233.829   Value=0xE0001000
T4860 000:233.838 - 0.015ms returns 0
T4860 000:233.845 JLINK_GetDebugInfo(0x106 = JLINKARM_DEBUG_INFO_FPB_ADDR_INDEX)
T4860 000:233.851   Value=0xE0002000
T4860 000:233.860 - 0.015ms returns 0
T4860 000:233.868 JLINK_GetDebugInfo(0x107 = JLINKARM_DEBUG_INFO_NVIC_ADDR_INDEX)
T4860 000:233.874   Value=0xE000E000
T4860 000:233.883 - 0.015ms returns 0
T4860 000:233.890 JLINK_GetDebugInfo(0x10C = JLINKARM_DEBUG_INFO_DBG_ADDR_INDEX)
T4860 000:233.897   Value=0xE000EDF0
T4860 000:233.906 - 0.015ms returns 0
T4860 000:233.913 JLINK_GetDebugInfo(0x01 = Unknown)
T4860 000:233.920   Value=0x00000001
T4860 000:233.929 - 0.015ms returns 0
T4860 000:233.942 JLINK_ReadMemU32(0xE000ED00, 0x1 Items)
T4860 000:233.952   CPU_ReadMem(4 bytes @ 0xE000ED00)
T4860 000:234.368   Data:  14 D2 0F 41
T4860 000:234.390   Debug reg: CPUID
T4860 000:234.399 - 0.458ms returns 1 (0x1)
T4860 000:234.409 JLINK_GetDebugInfo(0x10F = JLINKARM_DEBUG_INFO_HAS_CORTEX_M_SECURITY_EXT_INDEX)
T4860 000:234.416   Value=0x00000000
T4860 000:234.426 - 0.016ms returns 0
T4860 000:234.434 JLINK_ReadMemEx(0xE000ED74, 0x4 Bytes, Flags = 0x02000004)
T4860 000:234.443   CPU_ReadMem(4 bytes @ 0xE000ED74)
T4860 000:234.892   Data:  00 00 00 00
T4860 000:234.912 - 0.478ms returns 4 (0x4)
T4860 000:237.915 JLINK_HasError()
T4860 000:237.946 JLINK_SetResetType(JLINKARM_CM3_RESET_TYPE_NORMAL)
T4860 000:237.954 - 0.007ms returns JLINKARM_CM3_RESET_TYPE_NORMAL
T4860 000:237.961 JLINK_Reset()
T4860 000:241.543   ResetTarget() start
T4860 000:241.584    J-Link Script File: Executing ResetTarget()
T4860 000:241.626   CPU is running
T4860 000:241.640   CPU_WriteMem(4 bytes @ 0xE000EDFC)
T4860 000:242.221   CPU is running
T4860 000:242.249   CPU_WriteMem(4 bytes @ 0xE0001020)
T4860 000:242.871   CPU is running
T4860 000:242.897   CPU_WriteMem(4 bytes @ 0xE0001024)
T4860 000:243.353   CPU is running
T4860 000:243.376   CPU_WriteMem(4 bytes @ 0xE0001028)
T4860 000:243.959   CPU is running
T4860 000:243.980   CPU_WriteMem(4 bytes @ 0xE000ED0C)
T4860 000:450.538   CPU_ReadMem(4 bytes @ 0xE000EDF0)
T4860 000:451.181   CPU_WriteMem(4 bytes @ 0xE000EDFC)
T4860 000:451.885   CPU_WriteMem(4 bytes @ 0xE0001028)
T4860 000:452.565   CPU_ReadMem(64 bytes @ 0x00000000)
T4860 000:453.774    -- Updating C cache (64 bytes @ 0x00000000)
T4860 000:453.848    -- Read from C cache (4 bytes @ 0x00000000)
T4860 000:456.583    -- Read from C cache (4 bytes @ 0x00000004)
T4860 000:467.885   ResetTarget() end - Took 217ms
T4860 000:475.668   Device specific reset executed.
T4860 000:479.974   CPU_ReadMem(4 bytes @ 0xE000EE08)
T4860 000:480.776   CPU_WriteMem(4 bytes @ 0xE0002000)
T4860 000:481.562   CPU_ReadMem(4 bytes @ 0xE000EDFC)
T4860 000:482.147   CPU_ReadMem(4 bytes @ 0xE0001000)
T4860 000:482.817   CPU_ReadMem(4 bytes @ 0xE000EE08)
T4860 000:483.453 - 245.490ms 
T4860 000:483.589 JLINK_Halt()
T4860 000:483.610 - 0.021ms returns 0x00
T4860 000:483.632 JLINK_ReadMemU32(0xE000EDF0, 0x1 Items)
T4860 000:483.660   CPU_ReadMem(4 bytes @ 0xE000EDF0)
T4860 000:484.168   Data:  03 00 03 00
T4860 000:484.223   Debug reg: DHCSR
T4860 000:484.249 - 0.617ms returns 1 (0x1)
T4860 000:484.312 JLINK_WriteU32(0xE000EDF0, 0xA05F0003)
T4860 000:484.332   Debug reg: DHCSR
T4860 000:485.103   CPU_WriteMem(4 bytes @ 0xE000EDF0)
T4860 000:485.694 - 1.394ms returns 0 (0x00000000)
T4860 000:485.785 JLINK_WriteU32(0xE000EDFC, 0x01000000)
T4860 000:485.806   Debug reg: DEMCR
T4860 000:485.841   CPU_WriteMem(4 bytes @ 0xE000EDFC)
T4860 000:486.525 - 0.739ms returns 0 (0x00000000)
T4860 000:506.503 JLINK_GetHWStatus(...)
T4860 000:506.949 - 0.444ms returns 0
T4860 000:518.173 JLINK_GetNumBPUnits(Type = 0xFFFFFF00)
T4860 000:518.218 - 0.045ms returns 0x08
T4860 000:518.229 JLINK_GetNumBPUnits(Type = 0xF0)
T4860 000:518.236 - 0.006ms returns 0x2000
T4860 000:518.243 JLINK_GetNumWPUnits()
T4860 000:518.250 - 0.006ms returns 4
T4860 000:528.125 JLINK_GetSpeed()
T4860 000:528.162 - 0.036ms returns 4000
T4860 000:533.594 JLINK_ReadMemU32(0xE000E004, 0x1 Items)
T4860 000:533.645   CPU_ReadMem(4 bytes @ 0xE000E004)
T4860 000:534.114   Data:  02 00 00 00
T4860 000:534.138 - 0.544ms returns 1 (0x1)
T4860 000:534.148 JLINK_ReadMemU32(0xE000E004, 0x1 Items)
T4860 000:534.159   CPU_ReadMem(4 bytes @ 0xE000E004)
T4860 000:534.626   Data:  02 00 00 00
T4860 000:534.654 - 0.505ms returns 1 (0x1)
T4860 000:534.675 JLINK_WriteMemEx(0xE0001000, 0x0000001C Bytes, Flags = 0x02000004)
T4860 000:534.682   Data:  01 00 00 00 00 00 00 00 00 00 00 00 00 00 00 00 ...
T4860 000:534.700   CPU_WriteMem(28 bytes @ 0xE0001000)
T4860 000:535.491 - 0.816ms returns 0x1C
T4860 000:535.517 JLINK_Halt()
T4860 000:535.524 - 0.007ms returns 0x00
T4860 000:535.532 JLINK_IsHalted()
T4860 000:535.540 - 0.007ms returns TRUE
T4860 000:538.219 JLINK_WriteMem(0x20000000, 0x1F0 Bytes, ...)
T4860 000:538.236   Data:  00 BE 0A E0 0D 78 2D 06 68 40 08 24 40 00 00 D3 ...
T4860 000:538.560   CPU_WriteMem(496 bytes @ 0x20000000)
T4860 000:541.601 - 3.381ms returns 0x1F0
T4860 000:541.717 JLINK_HasError()
T4860 000:541.738 JLINK_WriteReg(R0, 0x00000000)
T4860 000:541.750   CPU_ReadMem(4 bytes @ 0xE000EE08)
T4860 000:542.524 - 0.794ms returns 0
T4860 000:542.552 JLINK_WriteReg(R1, 0x00B71B00)
T4860 000:542.592 - 0.040ms returns 0
T4860 000:542.599 JLINK_WriteReg(R2, 0x00000001)
T4860 000:542.606 - 0.007ms returns 0
T4860 000:542.613 JLINK_WriteReg(R3, 0x00000000)
T4860 000:542.620 - 0.006ms returns 0
T4860 000:542.628 JLINK_WriteReg(R4, 0x00000000)
T4860 000:542.635 - 0.006ms returns 0
T4860 000:542.642 JLINK_WriteReg(R5, 0x00000000)
T4860 000:542.649 - 0.007ms returns 0
T4860 000:542.656 JLINK_WriteReg(R6, 0x00000000)
T4860 000:542.663 - 0.006ms returns 0
T4860 000:542.670 JLINK_WriteReg(R7, 0x00000000)
T4860 000:542.677 - 0.006ms returns 0
T4860 000:542.684 JLINK_WriteReg(R8, 0x00000000)
T4860 000:542.691 - 0.006ms returns 0
T4860 000:542.698 JLINK_WriteReg(R9, 0x200001EC)
T4860 000:542.705 - 0.006ms returns 0
T4860 000:542.712 JLINK_WriteReg(R10, 0x00000000)
T4860 000:542.719 - 0.007ms returns 0
T4860 000:542.727 JLINK_WriteReg(R11, 0x00000000)
T4860 000:542.733 - 0.006ms returns 0
T4860 000:542.741 JLINK_WriteReg(R12, 0x00000000)
T4860 000:542.748 - 0.006ms returns 0
T4860 000:542.763 JLINK_WriteReg(R13 (SP), 0x20008000)
T4860 000:542.770 - 0.015ms returns 0
T4860 000:542.778 JLINK_WriteReg(R14, 0x20000001)
T4860 000:542.785 - 0.007ms returns 0
T4860 000:542.797 JLINK_WriteReg(R15 (PC), 0x20000038)
T4860 000:542.804 - 0.012ms returns 0
T4860 000:542.812 JLINK_WriteReg(XPSR, 0x01000000)
T4860 000:542.819 - 0.007ms returns 0
T4860 000:542.826 JLINK_WriteReg(MSP, 0x20008000)
T4860 000:542.833 - 0.007ms returns 0
T4860 000:542.841 JLINK_WriteReg(PSP, 0x20008000)
T4860 000:542.848 - 0.007ms returns 0
T4860 000:542.856 JLINK_WriteReg(CFBP, 0x00000000)
T4860 000:542.862 - 0.006ms returns 0
T4860 000:542.871 JLINK_SetBPEx(Addr = 0x20000000, Type = 0xFFFFFFF2)
T4860 000:542.880 - 0.009ms returns 0x00000001
T4860 000:542.887 JLINK_Go()
T4860 000:542.900   CPU_WriteMem(4 bytes @ 0xE0002000)
T4860 000:543.316   CPU_ReadMem(4 bytes @ 0xE0001000)
T4860 000:543.768   CPU_WriteMem(4 bytes @ 0xE0002008)
T4860 000:543.790   CPU_WriteMem(4 bytes @ 0xE000200C)
T4860 000:543.799   CPU_WriteMem(4 bytes @ 0xE0002010)
T4860 000:543.809   CPU_WriteMem(4 bytes @ 0xE0002014)
T4860 000:543.818   CPU_WriteMem(4 bytes @ 0xE0002018)
T4860 000:543.827   CPU_WriteMem(4 bytes @ 0xE000201C)
T4860 000:543.837   CPU_WriteMem(4 bytes @ 0xE0002020)
T4860 000:543.846   CPU_WriteMem(4 bytes @ 0xE0002024)
T4860 000:546.156   CPU_WriteMem(4 bytes @ 0xE0001004)
T4860 000:557.275   Memory map 'after startup completion point' is active
T4860 000:557.346 - 14.457ms 
T4860 000:557.361 JLINK_IsHalted()
T4860 000:561.083 - 3.721ms returns TRUE
T4860 000:561.126 JLINK_ReadReg(R15 (PC))
T4860 000:561.139   CPU_ReadMem(4 bytes @ 0xE000EE08)
T4860 000:561.575 - 0.447ms returns 0x20000000
T4860 000:561.607 JLINK_ClrBPEx(BPHandle = 0x00000001)
T4860 000:561.615 - 0.008ms returns 0x00
T4860 000:561.623 JLINK_ReadReg(R0)
T4860 000:561.632 - 0.008ms returns 0x00000000
T4860 000:562.214 JLINK_HasError()
T4860 000:562.241 JLINK_WriteReg(R0, 0x00000000)
T4860 000:562.253 - 0.011ms returns 0
T4860 000:562.260 JLINK_WriteReg(R1, 0x00002000)
T4860 000:562.267 - 0.007ms returns 0
T4860 000:562.274 JLINK_WriteReg(R2, 0x000000FF)
T4860 000:562.281 - 0.006ms returns 0
T4860 000:562.288 JLINK_WriteReg(R3, 0x00000000)
T4860 000:562.295 - 0.006ms returns 0
T4860 000:562.302 JLINK_WriteReg(R4, 0x00000000)
T4860 000:562.309 - 0.006ms returns 0
T4860 000:562.316 JLINK_WriteReg(R5, 0x00000000)
T4860 000:562.324 - 0.007ms returns 0
T4860 000:562.331 JLINK_WriteReg(R6, 0x00000000)
T4860 000:562.338 - 0.006ms returns 0
T4860 000:562.346 JLINK_WriteReg(R7, 0x00000000)
T4860 000:562.352 - 0.007ms returns 0
T4860 000:562.360 JLINK_WriteReg(R8, 0x00000000)
T4860 000:562.366 - 0.006ms returns 0
T4860 000:562.374 JLINK_WriteReg(R9, 0x200001EC)
T4860 000:562.380 - 0.006ms returns 0
T4860 000:562.388 JLINK_WriteReg(R10, 0x00000000)
T4860 000:562.394 - 0.006ms returns 0
T4860 000:562.402 JLINK_WriteReg(R11, 0x00000000)
T4860 000:562.409 - 0.006ms returns 0
T4860 000:562.416 JLINK_WriteReg(R12, 0x00000000)
T4860 000:562.423 - 0.006ms returns 0
T4860 000:562.430 JLINK_WriteReg(R13 (SP), 0x20008000)
T4860 000:562.437 - 0.007ms returns 0
T4860 000:562.445 JLINK_WriteReg(R14, 0x20000001)
T4860 000:562.452 - 0.007ms returns 0
T4860 000:562.459 JLINK_WriteReg(R15 (PC), 0x20000020)
T4860 000:562.466 - 0.007ms returns 0
T4860 000:562.473 JLINK_WriteReg(XPSR, 0x01000000)
T4860 000:562.480 - 0.007ms returns 0
T4860 000:562.487 JLINK_WriteReg(MSP, 0x20008000)
T4860 000:562.494 - 0.006ms returns 0
T4860 000:562.502 JLINK_WriteReg(PSP, 0x20008000)
T4860 000:562.508 - 0.006ms returns 0
T4860 000:562.516 JLINK_WriteReg(CFBP, 0x00000000)
T4860 000:562.523 - 0.006ms returns 0
T4860 000:562.531 JLINK_SetBPEx(Addr = 0x20000000, Type = 0xFFFFFFF2)
T4860 000:562.539 - 0.008ms returns 0x00000002
T4860 000:562.546 JLINK_Go()
T4860 000:562.557   CPU_WriteMem(4 bytes @ 0xE0002000)
T4860 000:563.028   CPU_ReadMem(4 bytes @ 0xE0001000)
T4860 000:566.588 - 4.041ms 
T4860 000:566.636 JLINK_IsHalted()
T4860 000:569.906 - 3.268ms returns TRUE
T4860 000:569.965 JLINK_ReadReg(R15 (PC))
T4860 000:569.979   CPU_ReadMem(4 bytes @ 0xE000EE08)
T4860 000:570.452 - 0.486ms returns 0x20000000
T4860 000:570.498 JLINK_ClrBPEx(BPHandle = 0x00000002)
T4860 000:570.508 - 0.010ms returns 0x00
T4860 000:570.517 JLINK_ReadReg(R0)
T4860 000:570.526 - 0.008ms returns 0x00000001
T4860 000:570.535 JLINK_HasError()
T4860 000:570.543 JLINK_WriteReg(R0, 0x00000000)
T4860 000:570.551 - 0.007ms returns 0
T4860 000:570.558 JLINK_WriteReg(R1, 0x00002000)
T4860 000:570.566 - 0.008ms returns 0
T4860 000:570.575 JLINK_WriteReg(R2, 0x000000FF)
T4860 000:570.582 - 0.007ms returns 0
T4860 000:570.590 JLINK_WriteReg(R3, 0x00000000)
T4860 000:570.600 - 0.009ms returns 0
T4860 000:570.671 JLINK_WriteReg(R4, 0x00000000)
T4860 000:570.701 - 0.030ms returns 0
T4860 000:570.711 JLINK_WriteReg(R5, 0x00000000)
T4860 000:570.720 - 0.009ms returns 0
T4860 000:570.730 JLINK_WriteReg(R6, 0x00000000)
T4860 000:570.738 - 0.007ms returns 0
T4860 000:570.746 JLINK_WriteReg(R7, 0x00000000)
T4860 000:570.753 - 0.007ms returns 0
T4860 000:570.761 JLINK_WriteReg(R8, 0x00000000)
T4860 000:570.768 - 0.007ms returns 0
T4860 000:570.775 JLINK_WriteReg(R9, 0x200001EC)
T4860 000:570.782 - 0.007ms returns 0
T4860 000:570.790 JLINK_WriteReg(R10, 0x00000000)
T4860 000:570.797 - 0.006ms returns 0
T4860 000:570.804 JLINK_WriteReg(R11, 0x00000000)
T4860 000:570.811 - 0.007ms returns 0
T4860 000:570.818 JLINK_WriteReg(R12, 0x00000000)
T4860 000:570.838 - 0.019ms returns 0
T4860 000:570.846 JLINK_WriteReg(R13 (SP), 0x20008000)
T4860 000:570.854 - 0.008ms returns 0
T4860 000:570.862 JLINK_WriteReg(R14, 0x20000001)
T4860 000:570.869 - 0.007ms returns 0
T4860 000:570.877 JLINK_WriteReg(R15 (PC), 0x200000BE)
T4860 000:570.884 - 0.007ms returns 0
T4860 000:570.891 JLINK_WriteReg(XPSR, 0x01000000)
T4860 000:570.899 - 0.007ms returns 0
T4860 000:570.906 JLINK_WriteReg(MSP, 0x20008000)
T4860 000:570.913 - 0.007ms returns 0
T4860 000:570.921 JLINK_WriteReg(PSP, 0x20008000)
T4860 000:570.928 - 0.006ms returns 0
T4860 000:570.935 JLINK_WriteReg(CFBP, 0x00000000)
T4860 000:570.942 - 0.007ms returns 0
T4860 000:570.950 JLINK_SetBPEx(Addr = 0x20000000, Type = 0xFFFFFFF2)
T4860 000:570.959 - 0.009ms returns 0x00000003
T4860 000:570.967 JLINK_Go()
T4860 000:570.979   CPU_WriteMem(4 bytes @ 0xE0002000)
T4860 000:571.455   CPU_ReadMem(4 bytes @ 0xE0001000)
T4860 000:575.000 - 4.031ms 
T4860 000:575.053 JLINK_IsHalted()
T4860 000:575.492 - 0.438ms returns FALSE
T4860 000:575.512 JLINK_HasError()
T4860 000:586.526 JLINK_IsHalted()
T4860 000:589.886 - 3.358ms returns TRUE
T4860 000:589.934 JLINK_ReadReg(R15 (PC))
T4860 000:589.947   CPU_ReadMem(4 bytes @ 0xE000EE08)
T4860 000:590.418 - 0.484ms returns 0x20000000
T4860 000:590.441 JLINK_ClrBPEx(BPHandle = 0x00000003)
T4860 000:590.449 - 0.007ms returns 0x00
T4860 000:590.457 JLINK_ReadReg(R0)
T4860 000:590.465 - 0.008ms returns 0x00000000
T4860 000:591.066 JLINK_HasError()
T4860 000:591.089 JLINK_WriteReg(R0, 0x00000001)
T4860 000:591.099 - 0.010ms returns 0
T4860 000:591.106 JLINK_WriteReg(R1, 0x00002000)
T4860 000:591.113 - 0.007ms returns 0
T4860 000:591.120 JLINK_WriteReg(R2, 0x000000FF)
T4860 000:591.127 - 0.007ms returns 0
T4860 000:591.135 JLINK_WriteReg(R3, 0x00000000)
T4860 000:591.142 - 0.007ms returns 0
T4860 000:591.149 JLINK_WriteReg(R4, 0x00000000)
T4860 000:591.155 - 0.006ms returns 0
T4860 000:591.163 JLINK_WriteReg(R5, 0x00000000)
T4860 000:591.170 - 0.006ms returns 0
T4860 000:591.177 JLINK_WriteReg(R6, 0x00000000)
T4860 000:591.184 - 0.007ms returns 0
T4860 000:591.191 JLINK_WriteReg(R7, 0x00000000)
T4860 000:591.198 - 0.006ms returns 0
T4860 000:591.205 JLINK_WriteReg(R8, 0x00000000)
T4860 000:591.211 - 0.006ms returns 0
T4860 000:591.219 JLINK_WriteReg(R9, 0x200001EC)
T4860 000:591.226 - 0.007ms returns 0
T4860 000:591.233 JLINK_WriteReg(R10, 0x00000000)
T4860 000:591.240 - 0.007ms returns 0
T4860 000:591.248 JLINK_WriteReg(R11, 0x00000000)
T4860 000:591.255 - 0.007ms returns 0
T4860 000:591.262 JLINK_WriteReg(R12, 0x00000000)
T4860 000:591.269 - 0.006ms returns 0
T4860 000:591.276 JLINK_WriteReg(R13 (SP), 0x20008000)
T4860 000:591.284 - 0.008ms returns 0
T4860 000:591.292 JLINK_WriteReg(R14, 0x20000001)
T4860 000:591.298 - 0.006ms returns 0
T4860 000:591.306 JLINK_WriteReg(R15 (PC), 0x2000005E)
T4860 000:591.313 - 0.007ms returns 0
T4860 000:591.320 JLINK_WriteReg(XPSR, 0x01000000)
T4860 000:591.327 - 0.006ms returns 0
T4860 000:591.334 JLINK_WriteReg(MSP, 0x20008000)
T4860 000:591.341 - 0.006ms returns 0
T4860 000:591.348 JLINK_WriteReg(PSP, 0x20008000)
T4860 000:591.355 - 0.006ms returns 0
T4860 000:591.362 JLINK_WriteReg(CFBP, 0x00000000)
T4860 000:591.369 - 0.007ms returns 0
T4860 000:591.377 JLINK_SetBPEx(Addr = 0x20000000, Type = 0xFFFFFFF2)
T4860 000:591.384 - 0.008ms returns 0x00000004
T4860 000:591.392 JLINK_Go()
T4860 000:591.403   CPU_WriteMem(4 bytes @ 0xE0002000)
T4860 000:591.934   CPU_ReadMem(4 bytes @ 0xE0001000)
T4860 000:595.448 - 4.054ms 
T4860 000:595.490 JLINK_IsHalted()
T4860 000:598.799 - 3.308ms returns TRUE
T4860 000:598.854 JLINK_ReadReg(R15 (PC))
T4860 000:598.868   CPU_ReadMem(4 bytes @ 0xE000EE08)
T4860 000:599.400 - 0.545ms returns 0x20000000
T4860 000:599.447 JLINK_ClrBPEx(BPHandle = 0x00000004)
T4860 000:599.457 - 0.010ms returns 0x00
T4860 000:599.465 JLINK_ReadReg(R0)
T4860 000:599.475 - 0.009ms returns 0x00000000
T4860 000:659.394 JLINK_WriteMem(0x20000000, 0x1F0 Bytes, ...)
T4860 000:659.419   Data:  00 BE 0A E0 0D 78 2D 06 68 40 08 24 40 00 00 D3 ...
T4860 000:659.445   CPU_WriteMem(496 bytes @ 0x20000000)
T4860 000:662.582 - 3.188ms returns 0x1F0
T4860 000:662.671 JLINK_HasError()
T4860 000:662.682 JLINK_WriteReg(R0, 0x00000000)
T4860 000:662.693 - 0.010ms returns 0
T4860 000:662.700 JLINK_WriteReg(R1, 0x00B71B00)
T4860 000:662.707 - 0.007ms returns 0
T4860 000:662.714 JLINK_WriteReg(R2, 0x00000002)
T4860 000:662.721 - 0.006ms returns 0
T4860 000:662.728 JLINK_WriteReg(R3, 0x00000000)
T4860 000:662.735 - 0.006ms returns 0
T4860 000:662.742 JLINK_WriteReg(R4, 0x00000000)
T4860 000:662.749 - 0.006ms returns 0
T4860 000:662.756 JLINK_WriteReg(R5, 0x00000000)
T4860 000:662.764 - 0.007ms returns 0
T4860 000:662.771 JLINK_WriteReg(R6, 0x00000000)
T4860 000:662.778 - 0.007ms returns 0
T4860 000:662.786 JLINK_WriteReg(R7, 0x00000000)
T4860 000:662.792 - 0.006ms returns 0
T4860 000:662.800 JLINK_WriteReg(R8, 0x00000000)
T4860 000:662.806 - 0.006ms returns 0
T4860 000:662.814 JLINK_WriteReg(R9, 0x200001EC)
T4860 000:662.821 - 0.006ms returns 0
T4860 000:662.828 JLINK_WriteReg(R10, 0x00000000)
T4860 000:662.835 - 0.006ms returns 0
T4860 000:662.842 JLINK_WriteReg(R11, 0x00000000)
T4860 000:662.849 - 0.007ms returns 0
T4860 000:662.856 JLINK_WriteReg(R12, 0x00000000)
T4860 000:662.863 - 0.006ms returns 0
T4860 000:662.870 JLINK_WriteReg(R13 (SP), 0x20008000)
T4860 000:662.878 - 0.007ms returns 0
T4860 000:662.885 JLINK_WriteReg(R14, 0x20000001)
T4860 000:662.892 - 0.006ms returns 0
T4860 000:662.899 JLINK_WriteReg(R15 (PC), 0x20000038)
T4860 000:662.906 - 0.007ms returns 0
T4860 000:662.914 JLINK_WriteReg(XPSR, 0x01000000)
T4860 000:662.921 - 0.007ms returns 0
T4860 000:662.928 JLINK_WriteReg(MSP, 0x20008000)
T4860 000:662.935 - 0.006ms returns 0
T4860 000:662.942 JLINK_WriteReg(PSP, 0x20008000)
T4860 000:662.949 - 0.006ms returns 0
T4860 000:662.956 JLINK_WriteReg(CFBP, 0x00000000)
T4860 000:662.963 - 0.007ms returns 0
T4860 000:662.971 JLINK_SetBPEx(Addr = 0x20000000, Type = 0xFFFFFFF2)
T4860 000:662.979 - 0.008ms returns 0x00000005
T4860 000:662.986 JLINK_Go()
T4860 000:662.997   CPU_WriteMem(4 bytes @ 0xE0002000)
T4860 000:663.490   CPU_ReadMem(4 bytes @ 0xE0001000)
T4860 000:667.071 - 4.083ms 
T4860 000:667.093 JLINK_IsHalted()
T4860 000:670.449 - 3.355ms returns TRUE
T4860 000:670.468 JLINK_ReadReg(R15 (PC))
T4860 000:670.477   CPU_ReadMem(4 bytes @ 0xE000EE08)
T4860 000:670.904 - 0.436ms returns 0x20000000
T4860 000:670.923 JLINK_ClrBPEx(BPHandle = 0x00000005)
T4860 000:670.931 - 0.007ms returns 0x00
T4860 000:670.938 JLINK_ReadReg(R0)
T4860 000:670.946 - 0.007ms returns 0x00000000
T4860 000:671.576 JLINK_WriteMem(0x200001F0, 0x210 Bytes, ...)
T4860 000:671.590   Data:  68 06 00 20 71 02 00 00 E5 02 00 00 E7 02 00 00 ...
T4860 000:671.611   CPU_WriteMem(528 bytes @ 0x200001F0)
T4860 000:675.374 - 3.796ms returns 0x210
T4860 000:675.450 JLINK_WriteMem(0x20000400, 0x400 Bytes, ...)
T4860 000:675.458   Data:  00 23 00 24 00 25 00 26 10 3A 28 BF 78 C1 FB D8 ...
T4860 000:675.485   CPU_WriteMem(1024 bytes @ 0x20000400)
T4860 000:681.380 - 5.928ms returns 0x400
T4860 000:681.589 JLINK_WriteMem(0x20000800, 0x400 Bytes, ...)
T4860 000:681.664   Data:  FF FF FF FF FF FF FF FF FF FF FF FF FF FF FF FF ...
T4860 000:681.724   CPU_WriteMem(1024 bytes @ 0x20000800)
T4860 000:687.902 - 6.313ms returns 0x400
T4860 000:687.947 JLINK_WriteMem(0x20000C00, 0x400 Bytes, ...)
T4860 000:687.955   Data:  FF FF FF FF FF FF FF FF FF FF FF FF FF FF FF FF ...
T4860 000:687.980   CPU_WriteMem(1024 bytes @ 0x20000C00)
T4860 000:693.695 - 5.747ms returns 0x400
T4860 000:693.740 JLINK_WriteMem(0x20001000, 0x400 Bytes, ...)
T4860 000:693.748   Data:  FF FF FF FF FF FF FF FF FF FF FF FF FF FF FF FF ...
T4860 000:693.766   CPU_WriteMem(1024 bytes @ 0x20001000)
T4860 000:700.095 - 6.353ms returns 0x400
T4860 000:700.140 JLINK_WriteMem(0x20001400, 0x400 Bytes, ...)
T4860 000:700.148   Data:  FF FF FF FF FF FF FF FF FF FF FF FF FF FF FF FF ...
T4860 000:700.182   CPU_WriteMem(1024 bytes @ 0x20001400)
T4860 000:705.870 - 5.729ms returns 0x400
T4860 000:705.914 JLINK_WriteMem(0x20001800, 0x400 Bytes, ...)
T4860 000:705.922   Data:  FF FF FF FF FF FF FF FF FF FF FF FF FF FF FF FF ...
T4860 000:705.941   CPU_WriteMem(1024 bytes @ 0x20001800)
T4860 000:711.894 - 5.979ms returns 0x400
T4860 000:711.960 JLINK_WriteMem(0x20001C00, 0x400 Bytes, ...)
T4860 000:711.969   Data:  FF FF FF FF FF FF FF FF FF FF FF FF FF FF FF FF ...
T4860 000:712.016   CPU_WriteMem(1024 bytes @ 0x20001C00)
T4860 000:717.931 - 5.970ms returns 0x400
T4860 000:717.997 JLINK_WriteMem(0x20002000, 0x1F0 Bytes, ...)
T4860 000:718.006   Data:  FF FF FF FF FF FF FF FF FF FF FF FF FF FF FF FF ...
T4860 000:718.026   CPU_WriteMem(496 bytes @ 0x20002000)
T4860 000:721.381 - 3.382ms returns 0x1F0
T4860 000:721.442 JLINK_HasError()
T4860 000:721.453 JLINK_WriteReg(R0, 0x00000000)
T4860 000:721.465 - 0.012ms returns 0
T4860 000:721.473 JLINK_WriteReg(R1, 0x000004BC)
T4860 000:721.481 - 0.008ms returns 0
T4860 000:721.492 JLINK_WriteReg(R2, 0x200001F0)
T4860 000:721.500 - 0.007ms returns 0
T4860 000:721.573 JLINK_WriteReg(R3, 0x00000000)
T4860 000:721.603 - 0.030ms returns 0
T4860 000:721.612 JLINK_WriteReg(R4, 0x00000000)
T4860 000:721.623 - 0.010ms returns 0
T4860 000:721.633 JLINK_WriteReg(R5, 0x00000000)
T4860 000:721.640 - 0.007ms returns 0
T4860 000:721.649 JLINK_WriteReg(R6, 0x00000000)
T4860 000:721.656 - 0.007ms returns 0
T4860 000:721.663 JLINK_WriteReg(R7, 0x00000000)
T4860 000:721.671 - 0.007ms returns 0
T4860 000:721.678 JLINK_WriteReg(R8, 0x00000000)
T4860 000:721.685 - 0.006ms returns 0
T4860 000:721.692 JLINK_WriteReg(R9, 0x200001EC)
T4860 000:721.699 - 0.006ms returns 0
T4860 000:721.706 JLINK_WriteReg(R10, 0x00000000)
T4860 000:721.713 - 0.007ms returns 0
T4860 000:721.720 JLINK_WriteReg(R11, 0x00000000)
T4860 000:721.727 - 0.006ms returns 0
T4860 000:721.734 JLINK_WriteReg(R12, 0x00000000)
T4860 000:721.741 - 0.006ms returns 0
T4860 000:721.749 JLINK_WriteReg(R13 (SP), 0x20008000)
T4860 000:721.756 - 0.007ms returns 0
T4860 000:721.764 JLINK_WriteReg(R14, 0x20000001)
T4860 000:721.770 - 0.006ms returns 0
T4860 000:721.778 JLINK_WriteReg(R15 (PC), 0x200000FA)
T4860 000:721.785 - 0.007ms returns 0
T4860 000:721.792 JLINK_WriteReg(XPSR, 0x01000000)
T4860 000:721.799 - 0.007ms returns 0
T4860 000:721.807 JLINK_WriteReg(MSP, 0x20008000)
T4860 000:721.814 - 0.007ms returns 0
T4860 000:721.821 JLINK_WriteReg(PSP, 0x20008000)
T4860 000:721.828 - 0.007ms returns 0
T4860 000:721.836 JLINK_WriteReg(CFBP, 0x00000000)
T4860 000:721.843 - 0.006ms returns 0
T4860 000:721.851 JLINK_SetBPEx(Addr = 0x20000000, Type = 0xFFFFFFF2)
T4860 000:721.860 - 0.008ms returns 0x00000006
T4860 000:721.868 JLINK_Go()
T4860 000:721.880   CPU_WriteMem(4 bytes @ 0xE0002000)
T4860 000:722.496   CPU_ReadMem(4 bytes @ 0xE0001000)
T4860 000:726.184 - 4.314ms 
T4860 000:726.295 JLINK_IsHalted()
T4860 000:726.956 - 0.660ms returns FALSE
T4860 000:726.992 JLINK_HasError()
T4860 000:731.853 JLINK_IsHalted()
T4860 000:732.367 - 0.513ms returns FALSE
T4860 000:732.387 JLINK_HasError()
T4860 000:733.548 JLINK_IsHalted()
T4860 000:734.006 - 0.457ms returns FALSE
T4860 000:734.025 JLINK_HasError()
T4860 000:735.554 JLINK_IsHalted()
T4860 000:738.777 - 3.221ms returns TRUE
T4860 000:738.837 JLINK_ReadReg(R15 (PC))
T4860 000:738.857   CPU_ReadMem(4 bytes @ 0xE000EE08)
T4860 000:739.484 - 0.645ms returns 0x20000000
T4860 000:739.522 JLINK_ClrBPEx(BPHandle = 0x00000006)
T4860 000:739.531 - 0.009ms returns 0x00
T4860 000:739.539 JLINK_ReadReg(R0)
T4860 000:739.548 - 0.009ms returns 0x00000000
T4860 000:739.557 JLINK_HasError()
T4860 000:739.566 JLINK_WriteReg(R0, 0x00000002)
T4860 000:739.573 - 0.007ms returns 0
T4860 000:739.581 JLINK_WriteReg(R1, 0x000004BC)
T4860 000:739.587 - 0.006ms returns 0
T4860 000:739.595 JLINK_WriteReg(R2, 0x200001F0)
T4860 000:739.602 - 0.006ms returns 0
T4860 000:739.609 JLINK_WriteReg(R3, 0x00000000)
T4860 000:739.672 - 0.063ms returns 0
T4860 000:739.687 JLINK_WriteReg(R4, 0x00000000)
T4860 000:739.695 - 0.007ms returns 0
T4860 000:739.703 JLINK_WriteReg(R5, 0x00000000)
T4860 000:739.710 - 0.007ms returns 0
T4860 000:739.718 JLINK_WriteReg(R6, 0x00000000)
T4860 000:739.725 - 0.007ms returns 0
T4860 000:739.733 JLINK_WriteReg(R7, 0x00000000)
T4860 000:739.740 - 0.006ms returns 0
T4860 000:739.747 JLINK_WriteReg(R8, 0x00000000)
T4860 000:739.754 - 0.006ms returns 0
T4860 000:739.761 JLINK_WriteReg(R9, 0x200001EC)
T4860 000:739.767 - 0.006ms returns 0
T4860 000:739.775 JLINK_WriteReg(R10, 0x00000000)
T4860 000:739.781 - 0.006ms returns 0
T4860 000:739.789 JLINK_WriteReg(R11, 0x00000000)
T4860 000:739.796 - 0.006ms returns 0
T4860 000:739.803 JLINK_WriteReg(R12, 0x00000000)
T4860 000:739.810 - 0.007ms returns 0
T4860 000:739.817 JLINK_WriteReg(R13 (SP), 0x20008000)
T4860 000:739.825 - 0.007ms returns 0
T4860 000:739.832 JLINK_WriteReg(R14, 0x20000001)
T4860 000:739.839 - 0.006ms returns 0
T4860 000:739.846 JLINK_WriteReg(R15 (PC), 0x2000005E)
T4860 000:739.853 - 0.007ms returns 0
T4860 000:739.860 JLINK_WriteReg(XPSR, 0x01000000)
T4860 000:739.867 - 0.007ms returns 0
T4860 000:739.875 JLINK_WriteReg(MSP, 0x20008000)
T4860 000:739.882 - 0.006ms returns 0
T4860 000:739.890 JLINK_WriteReg(PSP, 0x20008000)
T4860 000:739.897 - 0.007ms returns 0
T4860 000:739.905 JLINK_WriteReg(CFBP, 0x00000000)
T4860 000:739.912 - 0.007ms returns 0
T4860 000:739.919 JLINK_SetBPEx(Addr = 0x20000000, Type = 0xFFFFFFF2)
T4860 000:739.927 - 0.008ms returns 0x00000007
T4860 000:739.935 JLINK_Go()
T4860 000:739.947   CPU_WriteMem(4 bytes @ 0xE0002000)
T4860 000:740.465   CPU_ReadMem(4 bytes @ 0xE0001000)
T4860 000:743.977 - 4.040ms 
T4860 000:744.039 JLINK_IsHalted()
T4860 000:747.241 - 3.201ms returns TRUE
T4860 000:747.300 JLINK_ReadReg(R15 (PC))
T4860 000:747.313   CPU_ReadMem(4 bytes @ 0xE000EE08)
T4860 000:747.838 - 0.538ms returns 0x20000000
T4860 000:747.883 JLINK_ClrBPEx(BPHandle = 0x00000007)
T4860 000:747.893 - 0.010ms returns 0x00
T4860 000:747.901 JLINK_ReadReg(R0)
T4860 000:747.911 - 0.010ms returns 0x00000000
T4860 000:806.821 JLINK_WriteMem(0x20000000, 0x1F0 Bytes, ...)
T4860 000:806.841   Data:  00 BE 0A E0 0D 78 2D 06 68 40 08 24 40 00 00 D3 ...
T4860 000:806.889   CPU_WriteMem(496 bytes @ 0x20000000)
T4860 000:811.147 - 4.326ms returns 0x1F0
T4860 000:811.243 JLINK_HasError()
T4860 000:811.256 JLINK_WriteReg(R0, 0x00000000)
T4860 000:811.268 - 0.011ms returns 0
T4860 000:811.276 JLINK_WriteReg(R1, 0x00B71B00)
T4860 000:811.283 - 0.007ms returns 0
T4860 000:811.291 JLINK_WriteReg(R2, 0x00000003)
T4860 000:811.298 - 0.006ms returns 0
T4860 000:811.305 JLINK_WriteReg(R3, 0x00000000)
T4860 000:811.312 - 0.006ms returns 0
T4860 000:811.327 JLINK_WriteReg(R4, 0x00000000)
T4860 000:811.334 - 0.006ms returns 0
T4860 000:811.341 JLINK_WriteReg(R5, 0x00000000)
T4860 000:811.348 - 0.006ms returns 0
T4860 000:811.355 JLINK_WriteReg(R6, 0x00000000)
T4860 000:811.362 - 0.006ms returns 0
T4860 000:811.369 JLINK_WriteReg(R7, 0x00000000)
T4860 000:811.377 - 0.007ms returns 0
T4860 000:811.385 JLINK_WriteReg(R8, 0x00000000)
T4860 000:811.392 - 0.007ms returns 0
T4860 000:811.399 JLINK_WriteReg(R9, 0x200001EC)
T4860 000:811.406 - 0.006ms returns 0
T4860 000:811.413 JLINK_WriteReg(R10, 0x00000000)
T4860 000:811.421 - 0.007ms returns 0
T4860 000:811.428 JLINK_WriteReg(R11, 0x00000000)
T4860 000:811.435 - 0.006ms returns 0
T4860 000:811.442 JLINK_WriteReg(R12, 0x00000000)
T4860 000:811.449 - 0.006ms returns 0
T4860 000:811.456 JLINK_WriteReg(R13 (SP), 0x20008000)
T4860 000:811.464 - 0.008ms returns 0
T4860 000:811.471 JLINK_WriteReg(R14, 0x20000001)
T4860 000:811.478 - 0.007ms returns 0
T4860 000:811.486 JLINK_WriteReg(R15 (PC), 0x20000038)
T4860 000:811.493 - 0.007ms returns 0
T4860 000:811.500 JLINK_WriteReg(XPSR, 0x01000000)
T4860 000:811.507 - 0.007ms returns 0
T4860 000:811.514 JLINK_WriteReg(MSP, 0x20008000)
T4860 000:811.521 - 0.006ms returns 0
T4860 000:811.528 JLINK_WriteReg(PSP, 0x20008000)
T4860 000:811.595 - 0.066ms returns 0
T4860 000:811.605 JLINK_WriteReg(CFBP, 0x00000000)
T4860 000:811.612 - 0.007ms returns 0
T4860 000:811.620 JLINK_SetBPEx(Addr = 0x20000000, Type = 0xFFFFFFF2)
T4860 000:811.629 - 0.009ms returns 0x00000008
T4860 000:811.637 JLINK_Go()
T4860 000:811.649   CPU_WriteMem(4 bytes @ 0xE0002000)
T4860 000:812.173   CPU_ReadMem(4 bytes @ 0xE0001000)
T4860 000:815.673 - 4.035ms 
T4860 000:815.705 JLINK_IsHalted()
T4860 000:819.569 - 3.862ms returns TRUE
T4860 000:819.612 JLINK_ReadReg(R15 (PC))
T4860 000:819.625   CPU_ReadMem(4 bytes @ 0xE000EE08)
T4860 000:820.063 - 0.450ms returns 0x20000000
T4860 000:820.096 JLINK_ClrBPEx(BPHandle = 0x00000008)
T4860 000:820.104 - 0.008ms returns 0x00
T4860 000:820.113 JLINK_ReadReg(R0)
T4860 000:820.122 - 0.009ms returns 0x00000000
T4860 000:820.131 JLINK_HasError()
T4860 000:820.139 JLINK_WriteReg(R0, 0xFFFFFFFF)
T4860 000:820.147 - 0.007ms returns 0
T4860 000:820.154 JLINK_WriteReg(R1, 0x00000000)
T4860 000:820.161 - 0.006ms returns 0
T4860 000:820.168 JLINK_WriteReg(R2, 0x000004BC)
T4860 000:820.175 - 0.006ms returns 0
T4860 000:820.182 JLINK_WriteReg(R3, 0x04C11DB7)
T4860 000:820.190 - 0.007ms returns 0
T4860 000:820.197 JLINK_WriteReg(R4, 0x00000000)
T4860 000:820.205 - 0.007ms returns 0
T4860 000:820.212 JLINK_WriteReg(R5, 0x00000000)
T4860 000:820.218 - 0.006ms returns 0
T4860 000:820.226 JLINK_WriteReg(R6, 0x00000000)
T4860 000:820.233 - 0.007ms returns 0
T4860 000:820.241 JLINK_WriteReg(R7, 0x00000000)
T4860 000:820.248 - 0.007ms returns 0
T4860 000:820.255 JLINK_WriteReg(R8, 0x00000000)
T4860 000:820.262 - 0.007ms returns 0
T4860 000:820.270 JLINK_WriteReg(R9, 0x200001EC)
T4860 000:820.277 - 0.006ms returns 0
T4860 000:820.284 JLINK_WriteReg(R10, 0x00000000)
T4860 000:820.291 - 0.007ms returns 0
T4860 000:820.298 JLINK_WriteReg(R11, 0x00000000)
T4860 000:820.305 - 0.007ms returns 0
T4860 000:820.312 JLINK_WriteReg(R12, 0x00000000)
T4860 000:820.319 - 0.007ms returns 0
T4860 000:820.327 JLINK_WriteReg(R13 (SP), 0x20008000)
T4860 000:820.334 - 0.007ms returns 0
T4860 000:820.341 JLINK_WriteReg(R14, 0x20000001)
T4860 000:820.348 - 0.007ms returns 0
T4860 000:820.356 JLINK_WriteReg(R15 (PC), 0x20000002)
T4860 000:820.363 - 0.007ms returns 0
T4860 000:820.370 JLINK_WriteReg(XPSR, 0x01000000)
T4860 000:820.377 - 0.007ms returns 0
T4860 000:820.384 JLINK_WriteReg(MSP, 0x20008000)
T4860 000:820.391 - 0.006ms returns 0
T4860 000:820.398 JLINK_WriteReg(PSP, 0x20008000)
T4860 000:820.405 - 0.007ms returns 0
T4860 000:820.412 JLINK_WriteReg(CFBP, 0x00000000)
T4860 000:820.419 - 0.007ms returns 0
T4860 000:820.427 JLINK_SetBPEx(Addr = 0x20000000, Type = 0xFFFFFFF2)
T4860 000:820.435 - 0.008ms returns 0x00000009
T4860 000:820.443 JLINK_Go()
T4860 000:820.453   CPU_WriteMem(4 bytes @ 0xE0002000)
T4860 000:820.988   CPU_ReadMem(4 bytes @ 0xE0001000)
T4860 000:824.642 - 4.197ms 
T4860 000:824.698 JLINK_IsHalted()
T4860 000:825.057 - 0.358ms returns FALSE
T4860 000:825.115 JLINK_HasError()
T4860 000:828.686 JLINK_IsHalted()
T4860 000:832.562 - 3.874ms returns TRUE
T4860 000:832.610 JLINK_ReadReg(R15 (PC))
T4860 000:832.625   CPU_ReadMem(4 bytes @ 0xE000EE08)
T4860 000:833.166 - 0.555ms returns 0x20000000
T4860 000:833.200 JLINK_ClrBPEx(BPHandle = 0x00000009)
T4860 000:833.209 - 0.009ms returns 0x00
T4860 000:833.218 JLINK_ReadReg(R0)
T4860 000:833.227 - 0.009ms returns 0xEB862743
T4860 000:837.776 JLINK_HasError()
T4860 000:837.819 JLINK_WriteReg(R0, 0x00000003)
T4860 000:837.833 - 0.013ms returns 0
T4860 000:837.841 JLINK_WriteReg(R1, 0x00000000)
T4860 000:837.848 - 0.007ms returns 0
T4860 000:837.857 JLINK_WriteReg(R2, 0x000004BC)
T4860 000:837.864 - 0.007ms returns 0
T4860 000:837.872 JLINK_WriteReg(R3, 0x04C11DB7)
T4860 000:837.878 - 0.007ms returns 0
T4860 000:837.886 JLINK_WriteReg(R4, 0x00000000)
T4860 000:837.893 - 0.006ms returns 0
T4860 000:837.900 JLINK_WriteReg(R5, 0x00000000)
T4860 000:837.907 - 0.007ms returns 0
T4860 000:837.915 JLINK_WriteReg(R6, 0x00000000)
T4860 000:837.989 - 0.073ms returns 0
T4860 000:837.998 JLINK_WriteReg(R7, 0x00000000)
T4860 000:838.005 - 0.007ms returns 0
T4860 000:838.013 JLINK_WriteReg(R8, 0x00000000)
T4860 000:838.020 - 0.007ms returns 0
T4860 000:838.027 JLINK_WriteReg(R9, 0x200001EC)
T4860 000:838.034 - 0.007ms returns 0
T4860 000:838.042 JLINK_WriteReg(R10, 0x00000000)
T4860 000:838.049 - 0.007ms returns 0
T4860 000:838.056 JLINK_WriteReg(R11, 0x00000000)
T4860 000:838.063 - 0.007ms returns 0
T4860 000:838.070 JLINK_WriteReg(R12, 0x00000000)
T4860 000:838.077 - 0.006ms returns 0
T4860 000:838.085 JLINK_WriteReg(R13 (SP), 0x20008000)
T4860 000:838.092 - 0.007ms returns 0
T4860 000:838.100 JLINK_WriteReg(R14, 0x20000001)
T4860 000:838.107 - 0.006ms returns 0
T4860 000:838.114 JLINK_WriteReg(R15 (PC), 0x2000005E)
T4860 000:838.121 - 0.007ms returns 0
T4860 000:838.129 JLINK_WriteReg(XPSR, 0x01000000)
T4860 000:838.136 - 0.007ms returns 0
T4860 000:838.143 JLINK_WriteReg(MSP, 0x20008000)
T4860 000:838.150 - 0.006ms returns 0
T4860 000:838.157 JLINK_WriteReg(PSP, 0x20008000)
T4860 000:838.164 - 0.007ms returns 0
T4860 000:838.171 JLINK_WriteReg(CFBP, 0x00000000)
T4860 000:838.178 - 0.006ms returns 0
T4860 000:838.186 JLINK_SetBPEx(Addr = 0x20000000, Type = 0xFFFFFFF2)
T4860 000:838.195 - 0.009ms returns 0x0000000A
T4860 000:838.204 JLINK_Go()
T4860 000:838.216   CPU_WriteMem(4 bytes @ 0xE0002000)
T4860 000:838.688   CPU_ReadMem(4 bytes @ 0xE0001000)
T4860 000:842.415 - 4.209ms 
T4860 000:842.455 JLINK_IsHalted()
T4860 000:845.863 - 3.406ms returns TRUE
T4860 000:845.906 JLINK_ReadReg(R15 (PC))
T4860 000:845.919   CPU_ReadMem(4 bytes @ 0xE000EE08)
T4860 000:846.364 - 0.456ms returns 0x20000000
T4860 000:846.397 JLINK_ClrBPEx(BPHandle = 0x0000000A)
T4860 000:846.405 - 0.008ms returns 0x00
T4860 000:846.414 JLINK_ReadReg(R0)
T4860 000:846.423 - 0.009ms returns 0x00000000
T4860 000:901.731 JLINK_WriteMemEx(0x20000000, 0x00000002 Bytes, Flags = 0x02000000)
T4860 000:901.770   Data:  FE E7
T4860 000:901.792   CPU_WriteMem(2 bytes @ 0x20000000)
T4860 000:902.288 - 0.558ms returns 0x2
T4860 000:902.313 JLINK_HasError()
T4860 000:912.878 JLINK_Close()
T4860 000:913.549   CPU_WriteMem(4 bytes @ 0xE0002008)
T4860 000:914.232   CPU_ReadMem(4 bytes @ 0xE0001000)
T4860 000:931.965 - 19.086ms
T4860 000:931.999   
T4860 000:932.005   Closed
